!Generated from: diff_trace.3dem
! Port_Group1-LOSS_PAIR_40_P::LOSS_PAIR_40_P
! Port_Group2-LOSS_PAIR_40_N::LOSS_PAIR_40_N
! Port_Group3-LOSS_PAIR_40_P::LOSS_PAIR_40_P
! Port_Group4-LOSS_PAIR_40_N::LOSS_PAIR_40_N
!
!Clarity3DWorkbench Version: 22.1.3.05301.351635   003
!
!TouchstoneFormatFlag = 1
!.DiffChannels
!"Diff_Channel_LOSS_PAIR_40_P_$_LOSS_PAIR_40_N" "LOSS_PAIR_40_P" "LOSS_PAIR_40_N" "Port_Group1-LOSS_PAIR_40_P::LOSS_PAIR_40_P" "Port_Group2-LOSS_PAIR_40_N::LOSS_PAIR_40_N" "Port_Group3-LOSS_PAIR_40_P::LOSS_PAIR_40_P" "Port_Group4-LOSS_PAIR_40_N::LOSS_PAIR_40_N" "0" "1" "2" "3"
!.EndDiffChannels
! GNDNET GND
! NETSLIST LOSS_PAIR_40_N,LOSS_PAIR_40_P
!
#	Hz	S	RI	R	50
1.000000000000000e+08			9.078695957156491e-04	2.346540254110926e-04	9.440404935408858e-05	1.636338736769229e-03	9.986092710141603e-01	-2.840626720903920e-02	-4.285453520790215e-05	1.695511324582770e-05
			9.440404935408858e-05	1.636338736769229e-03	9.072442371609313e-04	2.343637377953700e-04	-4.285330573201706e-05	1.695483002756758e-05	9.986104496480521e-01	-2.838801447107761e-02
			9.986092710141603e-01	-2.840626720903920e-02	-4.285330573201706e-05	1.695483002756758e-05	9.078435814320329e-04	2.346553941063902e-04	9.440520148791383e-05	1.636338630476318e-03
			-4.285453520790215e-05	1.695511324582770e-05	9.986104496480521e-01	-2.838801447107761e-02	9.440520148791383e-05	1.636338630476318e-03	9.072320910692433e-04	2.343633323389459e-04
2.000000000000000e+08			1.271118567139240e-03	-8.921089853303783e-05	2.487430667017621e-04	3.239063487281031e-03	9.969709508173732e-01	-5.615158924502477e-02	-5.312183885075497e-05	5.740187981815453e-05
			2.487430667017621e-04	3.239063487281031e-03	1.270217765703130e-03	-8.939457311153744e-05	-5.311737320857118e-05	5.740074213586922e-05	9.969739517449745e-01	-5.611557559126362e-02
			9.969709508173732e-01	-5.615158924502477e-02	-5.311737320857118e-05	5.740074213586922e-05	1.271014918039270e-03	-8.920438755233989e-05	2.487475884766006e-04	3.239063052321090e-03
			-5.312183885075497e-05	5.740187981815453e-05	9.969739517449745e-01	-5.611557559126362e-02	2.487475884766006e-04	3.239063052321090e-03	1.270167924622978e-03	-8.939421991198404e-05
3.000000000000000e+08			1.516696321347766e-03	-5.093078892659089e-04	4.868459562088998e-04	4.825992687849908e-03	9.946615941780155e-01	-8.372154873107875e-02	-5.538161562381613e-05	1.010972732303880e-04
			4.868459562088998e-04	4.825992687849908e-03	1.515597405745028e-03	-5.093072018833758e-04	-5.537208889062740e-05	1.010945955754890e-04	9.946673281182461e-01	-8.366795992729775e-02
			9.946615941780155e-01	-8.372154873107875e-02	-5.537208889062740e-05	1.010945955754890e-04	1.516463260418988e-03	-5.092886959794374e-04	4.868560437395294e-04	4.825991557175044e-03
			-5.538161562381613e-05	1.010972732303880e-04	9.946673281182461e-01	-8.366795992729775e-02	4.868560437395294e-04	4.825991557175044e-03	1.515484093505881e-03	-5.093024601877938e-04
4.000000000000000e+08			1.686288113350143e-03	-9.782000047494144e-04	8.096266059582143e-04	6.394635156077418e-03	9.916426861418153e-01	-1.111503951392212e-01	-5.146426350011435e-05	1.460092212207398e-04
			8.096266059582143e-04	6.394635156077418e-03	1.685042757188615e-03	-9.779732456553255e-04	-5.144796109894884e-05	1.460041515682595e-04	9.916520835642736e-01	-1.110794161504043e-01
			9.916426861418153e-01	-1.111503951392212e-01	-5.144796109894884e-05	1.460041515682595e-04	1.685874043361846e-03	-9.781564598960457e-04	8.096444428399108e-04	6.394632799679873e-03
			-5.146426350011435e-05	1.460092212207398e-04	9.916520835642736e-01	-1.110794161504043e-01	8.096444428399108e-04	6.394632799679873e-03	1.684840294190693e-03	-9.779582474694487e-04
5.000000000000000e+08			1.795911525856564e-03	-1.476008780965724e-03	1.216625416240650e-03	7.941246236697511e-03	9.879017539310647e-01	-1.384397418589433e-01	-4.207298941179415e-05	1.911166968468744e-04
			1.216625416240650e-03	7.941246236697511e-03	1.794561632108005e-03	-1.475530199845222e-03	-4.204830420860448e-05	1.911082067993195e-04	9.879157479651988e-01	-1.383515803100902e-01
			9.879017539310647e-01	-1.384397418589433e-01	-4.204830420860448e-05	1.911082067993195e-04	1.795265368789822e-03	-1.475924987743071e-03	1.216653170350263e-03	7.941241953987941e-03
			-4.207298941179415e-05	1.911166968468744e-04	9.879157479651988e-01	-1.383515803100902e-01	1.216653170350263e-03	7.941241953987941e-03	1.794244564111258e-03	-1.475496902777623e-03
6.000000000000000e+08			1.867118197030393e-03	-2.000144146661900e-03	1.706675257849108e-03	9.463681796643239e-03	9.834285775192161e-01	-1.655797001655951e-01	-2.627004878957492e-05	2.348388505495937e-04
			1.706675257849108e-03	9.463681796643239e-03	1.865651174694616e-03	-1.999383622551684e-03	-2.620453152892693e-05	2.347453375000771e-04	9.834481422376499e-01	-1.654745928367020e-01
			9.834285775192161e-01	-1.655797001655951e-01	-2.620453152892693e-05	2.347453375000771e-04	1.866199453789991e-03	-2.000004417076477e-03	1.706728599633958e-03	9.463638991604156e-03
			-2.627004878957492e-05	2.348388505495937e-04	9.834481422376499e-01	-1.654745928367020e-01	1.706728599633958e-03	9.463638991604156e-03	1.865171550960443e-03	-1.999308241155059e-03
7.000000000000000e+08			1.889252458957213e-03	-2.548462602124407e-03	2.278734113135769e-03	1.095742176553513e-02	9.782404042672243e-01	-1.925527991327204e-01	-3.351357832664936e-06	2.764815117417890e-04
			2.278734113135769e-03	1.095742176553513e-02	1.887661854635653e-03	-2.547364367700956e-03	-3.248666104941136e-06	2.762270995096986e-04	9.782664708647818e-01	-1.924310789825946e-01
			9.782404042672243e-01	-1.925527991327204e-01	-3.248666104941136e-06	2.762270995096986e-04	1.888010725793227e-03	-2.548261410599870e-03	2.278812959128417e-03	1.095730619237853e-02
			-3.351357832664936e-06	2.764815117417890e-04	9.782664708647818e-01	-1.924310789825946e-01	2.278812959128417e-03	1.095730619237853e-02	1.886978012054397e-03	-2.547206503554951e-03
8.000000000000000e+08			1.854658557862321e-03	-3.100728926476032e-03	2.931479259405696e-03	1.241659619141172e-02	9.723405968258859e-01	-2.193534469679794e-01	2.467800628525030e-05	3.156761649194600e-04
			2.931479259405696e-03	1.241659619141172e-02	1.852998017604468e-03	-3.099260281996155e-03	2.478423423273209e-05	3.152635488600638e-04	9.723740200497523e-01	-2.192154544096042e-01
			9.723405968258859e-01	-2.193534469679794e-01	2.478423423273209e-05	3.152635488600638e-04	1.853031140057165e-03	-3.100445370304510e-03	2.931569795826924e-03	1.241640841084475e-02
			2.467800628525030e-05	3.156761649194600e-04	9.723740200497523e-01	-2.192154544096042e-01	2.931569795826924e-03	1.241640841084475e-02	1.852099664468393e-03	-3.098992830671644e-03
9.000000000000000e+08			1.770644108386593e-03	-3.647769421259571e-03	3.663021611574821e-03	1.383700470686351e-02	9.657264653248493e-01	-2.459693888538691e-01	5.721706837541300e-05	3.518047181707128e-04
			3.663021611574821e-03	1.383700470686351e-02	1.768967415192974e-03	-3.645914483084586e-03	5.729989657500198e-05	3.512424547960739e-04	9.657680876626357e-01	-2.458154677521112e-01
			9.657264653248493e-01	-2.459693888538691e-01	5.729989657500198e-05	3.512424547960739e-04	1.768569545317566e-03	-3.647371304970774e-03	3.663113000868801e-03	1.383674798874913e-02
			5.721706837541300e-05	3.518047181707128e-04	9.657680876626357e-01	-2.458154677521112e-01	3.663113000868801e-03	1.383674798874913e-02	1.767846099000742e-03	-3.645515381748184e-03
1.000000000000000e+09			1.643630802943052e-03	-4.184056318134004e-03	4.471188330022718e-03	1.521446254305968e-02	9.583971497041973e-01	-2.723842581263972e-01	9.367747628839448e-05	3.844342396362721e-04
			4.471188330022718e-03	1.521446254305968e-02	1.641988463370880e-03	-4.181811541620971e-03	9.371571193281247e-05	3.837340892688659e-04	9.584478098448997e-01	-2.722147652829522e-01
			9.583971497041973e-01	-2.723842581263972e-01	9.371571193281247e-05	3.837340892688659e-04	1.641051561786872e-03	-4.183502129475714e-03	4.471272360131097e-03	1.521414163899805e-02
			9.367747628839448e-05	3.844342396362721e-04	9.584478098448997e-01	-2.722147652829522e-01	4.471272360131097e-03	1.521414163899805e-02	1.640635273882585e-03	-4.181261987096931e-03
1.100000000000000e+09			1.478879626175517e-03	-4.706174641870689e-03	5.353524920245725e-03	1.654486993326779e-02	9.503539362069694e-01	-2.985794469060244e-01	1.335000439940878e-04	4.132580042472567e-04
			5.353524920245725e-03	1.654486993326779e-02	1.477317714099896e-03	-4.703545307287477e-03	1.334772376519189e-04	4.124334049652829e-04	9.504144714387156e-01	-2.983947603288732e-01
			9.503539362069694e-01	-2.985794469060244e-01	1.334772376519189e-04	4.124334049652829e-04	1.475743404672381e-03	-4.705415487906872e-03	5.353595599818468e-03	1.654449034647081e-02
			1.335000439940878e-04	4.132580042472567e-04	9.504144714387156e-01	-2.983947603288732e-01	5.353595599818468e-03	1.654449034647081e-02	1.475722345067765e-03	-4.702828050188922e-03
1.200000000000000e+09			1.280611683471294e-03	-5.211890183296569e-03	6.307312292427401e-03	1.782425856412743e-02	9.416000967594490e-01	-3.245352544201365e-01	1.761557328382266e-04	4.380595221144890e-04
			6.307312292427401e-03	1.782425856412743e-02	1.279171714969524e-03	-5.208887951337789e-03	1.760593445923747e-04	4.371247086148045e-04	9.416713422431148e-01	-3.243357794640589e-01
			9.416000967594490e-01	-3.245352544201365e-01	1.760593445923747e-04	4.371247086148045e-04	1.276871947470615e-03	-5.210871386035286e-03	6.307365498553607e-03	1.782382610975607e-02
			1.761557328382266e-04	4.380595221144890e-04	9.416713422431148e-01	-3.243357794640589e-01	6.307365498553607e-03	1.782382610975607e-02	1.277322259984781e-03	-5.207985952798422e-03
1.300000000000000e+09			1.052229876724320e-03	-5.699611131715403e-03	7.329587994502814e-03	1.904882257303617e-02	9.321406054777007e-01	-3.502315616187011e-01	2.211425911525303e-04	4.586913253308992e-04
			7.329587994502814e-03	1.904882257303617e-02	1.050949061118883e-03	-5.696252432425282e-03	2.209633448576626e-04	4.576608023743375e-04	9.322233920900033e-01	-3.500177352109469e-01
			9.321406054777007e-01	-3.502315616187011e-01	2.209633448576626e-04	4.576608023743375e-04	1.047846011912712e-03	-5.698273474415358e-03	7.329621191822507e-03	1.904834310125461e-02
			2.211425911525303e-04	4.586913253308992e-04	9.322233920900033e-01	-3.500177352109469e-01	7.329621191822507e-03	1.904834310125461e-02	1.048832167242247e-03	-5.695147884402632e-03
1.400000000000000e+09			7.965333778159334e-04	-6.168086361087802e-03	8.417167578557537e-03	2.021493978053147e-02	9.219818623161545e-01	-3.756482203938177e-01	2.679827908968514e-04	4.750623338111350e-04
			8.417167578557537e-03	2.021493978053147e-02	7.954449393978991e-04	-6.164391349256781e-03	2.677141838501578e-04	4.739505419962993e-04	9.220770139260225e-01	-3.754205137995406e-01
			9.219818623161545e-01	-3.756482203938177e-01	2.677141838501578e-04	4.739505419962993e-04	7.914706581116648e-04	-6.166367055173705e-03	8.417179599822576e-03	2.021441898914636e-02
			2.679827908968514e-04	4.750623338111350e-04	9.220770139260225e-01	-3.754205137995406e-01	8.417179599822576e-03	2.021441898914636e-02	7.930461190021609e-04	-6.163064983885913e-03
1.500000000000000e+09			5.158939347950087e-04	-6.616240805064358e-03	9.566664852509012e-03	2.131918678875218e-02	9.111314612511666e-01	-4.007652768591967e-01	3.162208683563754e-04	4.871299238951975e-04
			9.566664852509012e-03	2.131918678875218e-02	5.150273827846663e-04	-6.612232671676134e-03	3.158587955863386e-04	4.859510099318740e-04	9.112397918356067e-01	-4.005241973927373e-01
			9.111314612511666e-01	-4.007652768591967e-01	3.158587955863386e-04	4.859510099318740e-04	5.101234082788564e-04	-6.614074251059865e-03	9.566655724537581e-03	2.131863008523407e-02
			3.162208683563754e-04	4.871299238951975e-04	9.112397918356067e-01	-4.005241973927373e-01	9.566655724537581e-03	2.131863008523407e-02	5.123313851863043e-04	-6.610663283304431e-03
1.600000000000000e+09			2.123914351100376e-04	-7.043088999909651e-03	1.077451080738050e-02	2.235835012471597e-02	8.995980062559136e-01	-4.255630993873643e-01	3.654231741429172e-04	4.948944506579919e-04
			1.077451080738050e-02	2.235835012471597e-02	2.117727467461361e-04	-7.038793493433983e-03	3.649656326096106e-04	4.936620955335496e-04	8.997203170325595e-01	-4.253091913677247e-01
			8.995980062559136e-01	-4.255630993873643e-01	3.649656326096106e-04	4.936620955335496e-04	2.058897754986799e-04	-7.040407399697107e-03	1.077448160774759e-02	2.235776251613928e-02
			3.654231741429172e-04	4.948944506579919e-04	8.997203170325595e-01	-4.253091913677247e-01	1.077448160774759e-02	2.235776251613928e-02	2.087639436743061e-04	-7.036957613963349e-03
1.700000000000000e+09			-1.120851556461744e-04	-7.447692905739468e-03	1.203697134057081e-02	2.332943471512846e-02	8.873909678549027e-01	-4.500224520632738e-01	4.151782156873538e-04	4.983949768235501e-04
			1.203697134057081e-02	2.332943471512846e-02	-1.124334358296175e-04	-7.443137967915722e-03	4.146250623342940e-04	4.971222576130299e-04	8.875280445014885e-01	-4.497562972165255e-01
			8.873909678549027e-01	-4.500224520632738e-01	4.146250623342940e-04	4.971222576130299e-04	-1.193358097913988e-04	-7.444426766528033e-03	1.203692407367042e-02	2.332882071501365e-02
			4.151782156873538e-04	4.983949768235501e-04	8.875280445014885e-01	-4.497562972165255e-01	1.203692407367042e-02	2.332882071501365e-02	-1.157706713018347e-04	-7.441009653533663e-03
1.800000000000000e+09			-4.557639580353157e-04	-7.829144698094051e-03	1.335016396361208e-02	2.422967046078429e-02	8.745205713459309e-01	-4.741245367121252e-01	4.650975412497094e-04	4.977055441017482e-04
			1.335016396361208e-02	2.422967046078429e-02	-4.558226852457714e-04	-7.824360154625253e-03	4.644502864702832e-04	4.964048171670066e-04	8.746731813308005e-01	-4.738467541541704e-01
			8.745205713459309e-01	-4.741245367121252e-01	4.644502864702832e-04	4.964048171670066e-04	-4.637761662112660e-04	-7.825223255502757e-03	1.335010144792395e-02	2.422903400754093e-02
			4.650975412497094e-04	4.977055441017482e-04	8.746731813308005e-01	-4.738467541541704e-01	1.335010144792395e-02	2.422903400754093e-02	-4.595036147960752e-04	-7.821910855390087e-03
1.900000000000000e+09			-8.169368566263435e-04	-8.186563526283892e-03	1.471007366669721e-02	2.505651738270623e-02	8.609977088879032e-01	-4.978510166931119e-01	5.148168714991398e-04	4.929316528595150e-04
			1.471007366669721e-02	2.505651738270623e-02	-8.166902980602520e-04	-8.181580796825141e-03	5.140784954488914e-04	4.916144525486518e-04	8.611665989180232e-01	-4.975622625801713e-01
			8.609977088879032e-01	-4.978510166931119e-01	5.140784954488914e-04	4.916144525486518e-04	-8.257180365808525e-04	-8.181915105074371e-03	1.470999942774002e-02	2.505586176747200e-02
			5.148168714991398e-04	4.929316528595150e-04	8.611665989180232e-01	-4.975622625801713e-01	1.470999942774002e-02	2.505586176747200e-02	-8.207294725133818e-04	-8.178779289752865e-03
2.000000000000000e+09			-1.193921522087277e-03	-8.519099932277251e-03	1.611256807749656e-02	2.580766964301045e-02	8.468338693534020e-01	-5.211840300155710e-01	5.639972593758889e-04	4.842067997547191e-04
			1.611256807749656e-02	2.580766964301045e-02	-1.193357394362715e-03	-8.513951739792865e-03	5.631720428252857e-04	4.828837500284715e-04	8.470197629413786e-01	-5.208849969206433e-01
			8.468338693534020e-01	-5.211840300155710e-01	5.631720428252857e-04	4.828837500284715e-04	-1.203474104724989e-03	-8.513652257565535e-03	1.611248624293981e-02	2.580699744630321e-02
			5.639972593758889e-04	4.842067997547191e-04	8.470197629413786e-01	-5.208849969206433e-01	1.611248624293981e-02	2.580699744630321e-02	-1.197768327551418e-03	-8.510764112081612e-03
2.100000000000000e+09			-1.585034904670435e-03	-8.825944284932739e-03	1.755341201996177e-02	2.648105864494969e-02	8.320410813986042e-01	-5.441061961441005e-01	6.123261266332593e-04	4.716890231554489e-04
			1.755341201996177e-02	2.648105864494969e-02	-1.584144419255862e-03	-8.820664354637228e-03	6.114194910682366e-04	4.703697612273815e-04	8.322446765501462e-01	-5.437976121998518e-01
			8.320410813986042e-01	-5.441061961441005e-01	6.114194910682366e-04	4.703697612273815e-04	-1.595356481993632e-03	-8.819624753160824e-03	1.755332721486025e-02	2.648037168234502e-02
			6.123261266332593e-04	4.716890231554489e-04	8.322446765501462e-01	-5.437976121998518e-01	1.755332721486025e-02	2.648037168234502e-02	-1.588939281700952e-03	-8.817054027469851e-03
2.200000000000000e+09			-1.988575350337168e-03	-9.106337101370814e-03	1.902828155479732e-02	2.707485535707795e-02	8.166318664305211e-01	-5.666006190432451e-01	6.595180800184237e-04	4.555574588193745e-04
			1.902828155479732e-02	2.707485535707795e-02	-1.987353253114416e-03	-9.100959845958566e-03	6.585364337881074e-04	4.542505706592133e-04	8.168538334553249e-01	-5.662832468813130e-01
			8.166318664305211e-01	-5.666006190432451e-01	6.585364337881074e-04	4.542505706592133e-04	-1.999658815163452e-03	-9.099073018116507e-03	1.902819879599644e-02	2.707415463445353e-02
			6.595180800184237e-04	4.555574588193745e-04	8.168538334553249e-01	-5.662832468813130e-01	1.902819879599644e-02	2.707415463445353e-02	-1.992542585626589e-03	-9.096887631713041e-03
2.300000000000000e+09			-2.402811252012887e-03	-9.359580000263580e-03	2.053277756664465e-02	2.758747196854157e-02	8.006191990636075e-01	-5.886508879698092e-01	7.053154517152795e-04	4.360089338504109e-04
			2.053277756664465e-02	2.758747196854157e-02	-2.401255846328360e-03	-9.354140192207948e-03	7.042660404617956e-04	4.347219016805947e-04	8.008601785140775e-01	-5.883255234804889e-01
			8.006191990636075e-01	-5.886508879698092e-01	7.042660404617956e-04	4.347219016805947e-04	-2.414644928447479e-03	-9.351298790651795e-03	2.053270215616676e-02	2.758675764749091e-02
			7.053154517152795e-04	4.360089338504109e-04	8.008601785140775e-01	-5.883255234804889e-01	2.053270215616676e-02	2.758675764749091e-02	-2.406848293527997e-03	-9.349564379426807e-03
2.400000000000000e+09			-2.825974698751343e-03	-9.585046540349647e-03	2.206243895167433e-02	2.801756295667372e-02	7.840164733163734e-01	-6.102410769160461e-01	7.494885394786228e-04	4.132546370457365e-04
			2.206243895167433e-02	2.801756295667372e-02	-2.824087844220946e-03	-9.579578974501686e-03	7.483793000508977e-04	4.119937989886923e-04	7.842770740595789e-01	-6.099085478490844e-01
			7.840164733163734e-01	-6.102410769160461e-01	7.483793000508977e-04	4.119937989886923e-04	-2.838542462654359e-03	-9.575675936949336e-03	2.206237636943806e-02	2.801683433060327e-02
			7.494885394786228e-04	4.132546370457365e-04	7.842770740595789e-01	-6.099085478490844e-01	2.206237636943806e-02	2.801683433060327e-02	-2.830089907876560e-03	-9.574455435960444e-03
2.500000000000000e+09			-3.256258978835164e-03	-9.782192498036670e-03	2.361275545145311e-02	2.836402562918048e-02	7.668374732686388e-01	-6.313557432517699e-01	7.918355440566707e-04	3.875169051305487e-04
			2.361275545145311e-02	2.836402562918048e-02	-3.254046060706534e-03	-9.776731649131835e-03	7.906749617496711e-04	3.862874270664047e-04	7.671182706971617e-01	-6.310169076773032e-01
			7.668374732686388e-01	-6.313557432517699e-01	7.906749617496711e-04	3.862874270664047e-04	-3.269540367802859e-03	-9.771660710562388e-03	2.361271124804645e-02	2.836328111043296e-02
			7.918355440566707e-04	3.875169051305487e-04	7.671182706971617e-01	-6.310169076773032e-01	2.361271124804645e-02	2.836328111043296e-02	-3.260461872683945e-03	-9.771013969031357e-03
2.600000000000000e+09			-3.691819073489755e-03	-9.950565318832552e-03	2.517918017310756e-02	2.862600018854625e-02	7.490963472345611e-01	-6.519799259019005e-01	8.321822169673476e-04	3.590261610030652e-04
			2.517918017310756e-02	2.862600018854625e-02	-3.689288939499130e-03	-9.945144999138497e-03	8.309791863329880e-04	3.578320205460490e-04	7.493978816215581e-01	-6.516356705497230e-01
			7.490963472345611e-01	-6.519799259019005e-01	8.309791863329880e-04	3.578320205460490e-04	-3.705789386175662e-03	-9.938801189520764e-03	2.517915986355138e-02	2.862523730669679e-02
