!Generated from: D:/Projects/HardwareDesign/Sigrity/ac_multi_ic/ac_multi_ic.topx
! Port_1_a1::a
!
!TouchstoneFormatFlag = 1
!
#	Hz	S	MA	R	1
100	0.983399333708674	179.999856440733
109.648	0.983399333460742	179.999842585953
120.226	0.98339933315563	179.999827395302
131.826	0.983399332776574	179.999810736544
144.544	0.983399332306803	179.999792471672
158.489	0.983399331730322	179.999772443979
173.78	0.983399331021786	179.999750482391
190.546	0.983399330150119	179.999726401458
208.93	0.983399329078918	179.999699995623
229.087	0.9833993277643	179.999671042103
251.189	0.983399326152684	179.999639293719
275.423	0.98339932418044	179.999604481783
301.995	0.983399321769492	179.999566310339
331.131	0.98339931882868	179.999524454756
363.078	0.983399315248543	179.999478560286
398.107	0.983399310896781	179.999428237745
436.516	0.983399305617348	179.999373059209
478.63	0.983399299222645	179.999312557991
524.807	0.983399291487262	179.999246220037
575.44	0.983399282140583	179.999173481051
630.957	0.983399270858221	179.999093726504
691.831	0.983399257249341	179.999006277287
758.578	0.983399240843332	179.9989103926
831.764	0.983399221073548	179.998805259969
912.011	0.983399197256673	179.998689986682
1000	0.983399168569254	179.998563595585
1096.48	0.983399134017637	179.998425012302
1202.26	0.983399092413649	179.998273076926
1318.26	0.983399042308695	179.998106471045
1445.44	0.983398981979047	179.997923820099
1584.89	0.983398909332305	179.997723564627
1737.8	0.983398821851315	179.997504004027
1905.46	0.983398716517117	179.997263297498
2089.3	0.983398589690632	179.996999407753
2290.87	0.983398437012435	179.996710131282
2511.89	0.983398253232751	179.996393028598
2754.23	0.983398032064202	179.996045455607
3019.95	0.983397765960716	179.99566450951
3311.31	0.983397445875172	179.995247018955
3630.78	0.983397060979782	179.99478953545
3981.07	0.983396598312489	179.994288297906
4365.16	0.983396042355234	179.993739199677
4786.3	0.98339537459009	179.993137801111
5248.07	0.983394572881804	179.992479260952
5754.4	0.98339361082392	179.991758329844
6309.57	0.983392457035112	179.990969378927
6918.31	0.983391074138837	179.990106295192
7585.78	0.983389417893832	179.98916255735
8317.64	0.983387435998005	179.988131199114
9120.11	0.983385066802719	179.987004803717
10000	0.983382238019975	179.985775562699
10964.8	0.98337886515727	179.984435280829
12022.6	0.98337485076211	179.982975638363
13182.6	0.983370081343168	179.981387689023
14454.4	0.983364429445652	179.979663074219
15848.9	0.983357749799289	179.977793074875
17378	0.983349880872293	179.975769390203
19054.6	0.983340647083809	179.973584458652
20893	0.983329859731881	179.971231385835
22908.7	0.983317323478558	179.968704623724
25118.9	0.983302841106769	179.965999751514
27542.3	0.983286226360875	179.963114192051
30199.5	0.983267312786543	179.960046661744
33113.1	0.983245969262346	179.956797276528
36307.8	0.983222115881006	179.953367122519
39810.7	0.983195738484031	179.94975732561
43651.6	0.983166908341643	179.945967747543
47863	0.983135769628111	179.941995362614
52480.7	0.983102550287159	179.937832574198
57544	0.983067546769932	179.933466413394
63095.7	0.983031111638902	179.928871769039
69183.1	0.982993656235665	179.923987716049
75857.8	0.982955400076341	179.918751303382
83176.4	0.982916509601168	179.913136739146
91201.1	0.98287708991933	179.907114387147
100000	0.982837279892748	179.900610381344
109648	0.982797579240949	179.893485544505
120226	0.982757417940568	179.885684404728
131826	0.982716144934412	179.877139836189
144544	0.982673088200467	179.867773709791
158489	0.982627533849211	179.857486139433
173780	0.982578521934665	179.846177101452
190546	0.982524980268343	179.833744874994
208930	0.982465593827214	179.820081993061
229087	0.982398820947677	179.805078342862
251189	0.982322848030862	179.788618401579
275423	0.98223552016856	179.770585179457
301995	0.982134384609005	179.750856274339
331131	0.982016491485502	179.729309917997
363078	0.98187834722914	179.705831494499
398107	0.98171585010248	179.680325899525
436516	0.981524293044112	179.65274994488
478630	0.981299605058163	179.623036403771
524807	0.98103869081128	179.591316938489
575440	0.980744313053311	179.557862161586
630957	0.980431887604433	179.522525948619
691831	0.980121598948563	179.483368964741
758578	0.979796017404455	179.436484316374
831764	0.979378825756781	179.379327733269
912011	0.978791703861853	179.31250528551
1000000	0.977983796585814	179.237128399798
1096480	0.97690055552525	179.152929936556
1202260	0.975451110186704	179.059059318326
1318260	0.973480170301699	178.955379800876
1445440	0.97074487582364	178.843861563182
1584890	0.966829025572819	178.731459200624
1737800	0.961062395746787	178.650526318581
1905460	0.952705544781595	178.678456138939
2089300	0.94174671510686	179.016890278231
2290870	0.933589690504905	179.960263362852
2511890	0.939813302313868	-178.821875047533
2754230	0.956861958287226	-178.302549113891
3019950	0.971087309119591	-178.458463665486
3311310	0.979344629331738	-178.817292516904
3630780	0.983741150223539	-179.168757203564
3981070	0.986113557209338	-179.471191386084
4365160	0.987452355579075	-179.72991246592
4786300	0.98820897442556	-179.956846742896
5248070	0.988634808794972	179.837881851226
5754400	0.98886036609357	179.646245636174
6309570	0.98895451927109	179.462190521959
6918310	0.988955127888613	179.280946987183
7585780	0.988876665779712	179.099078392847
8317640	0.988724583205232	178.91357582114
9120110	0.988491840164582	178.722031869276
10000000	0.988162468540937	178.523090162946
10400000	0.987979918894096	178.43641734401
10800000	0.987790366785769	178.35199878921
11200000	0.987601819499838	178.269796924939
11600000	0.987433428346879	178.190885482134
12000000	0.987276860592269	178.113652271169
12400000	0.98713281920863	178.037330908605
12800000	0.987013203026457	177.960367070127
13200000	0.986915014582736	177.88245776462
13600000	0.9868218047635	177.804382851599
14000000	0.986726062438272	177.726172987382
14400000	0.986603399122391	177.647659861785
14800000	0.98646025441672	177.569010927333
15200000	0.986305705350345	177.490438031722
15600000	0.986141155441595	177.412072451148
16000000	0.985972461453442	177.334390560717
16400000	0.985795764788563	177.257152211029
16800000	0.985606625253998	177.180839410513
17200000	0.985418685106374	177.104723423281
17600000	0.985218780126841	177.028733753898
18000000	0.98501573302256	176.95323278539
18400000	0.984811769966559	176.877710420275
18800000	0.984598346017814	176.802354535521
19200000	0.984379957118555	176.727450752409
19600000	0.984159185693468	176.652647927376
20000000	0.983929179250041	176.577917590447
20400000	0.983691548257888	176.50365431229
20800000	0.983453043673933	176.429582330442
21200000	0.983206027649065	176.355437689851
21600000	0.982948697879869	176.281781944594
22000000	0.982691713380865	176.208521320371
22400000	0.98242957684358	176.13504983332
22800000	0.982157190337161	176.061941905905
23200000	0.981878997519867	175.98908642837
23600000	0.981595232168668	175.916503425069
24000000	0.98130613629161	175.844213507642
24400000	0.981011960155628	175.772237882881
24800000	0.980712962295249	175.700598359993
25200000	0.980409138696376	175.629417789429
25600000	0.980099986296116	175.559008559168
26000000	0.979786976197265	175.48895452765
26400000	0.979470554485488	175.419222491586
26800000	0.979151175231293	175.349779249733
27200000	0.978829299955914	175.280591607039
27600000	0.978505397126842	175.211626383352
28000000	0.978179941686447	175.142850426277
28400000	0.977857507418644	175.074043234172
28800000	0.977537772290591	175.005208630422
29200000	0.977217104967861	174.936502392257
29600000	0.976895311585635	174.867923348417
30000000	0.97657220228866	174.799470565692
30400000	0.976247591284207	174.731143367563
30800000	0.975921296895123	174.662941352354
31200000	0.975593141613465	174.594864410942
31600000	0.975262952155151	174.526912744046
32000000	0.974929901391234	174.45929956926
32400000	0.9745944810716	174.39181821422
32800000	0.974256620207218	174.324440572628
33200000	0.973916211097822	174.257151364722
33600000	0.973573149276155	174.189935393869
34000000	0.973227333565763	174.122777559902
34400000	0.972878666149138	174.055662871984
34800000	0.972527052646049	173.988576460987
35200000	0.972172402201923	173.921503591379
35600000	0.971815046753154	173.854308709084
36000000	0.97145547171883	173.786813709326
36400000	0.971092538583472	173.719310189628
36800000	0.97072609052119	173.65180741969
37200000	0.970355974458952	173.584314839428
37600000	0.969982041159055	173.516842067766
38000000	0.969604145306764	173.44939891162
38400000	0.969222145603295	173.381995375037
38800000	0.968835904864307	173.314641668501
39200000	0.96844529012401	173.247348218394
39600000	0.968050172744969	173.180125676601
40000000	0.967648637830539	173.113061512226
40400000	0.967240398485494	173.046175968435
40800000	0.966827487364986	172.979389179448
41200000	0.966409964912329	172.912705159116
41600000	0.965987895394186	172.846127995412
42000000	0.965561347031866	172.779661856045
42400000	0.965130392137063	172.713310993808
42800000	0.964695107251974	172.647079751622
43200000	0.964255573293734	172.580972567272
43600000	0.963811875703015	172.514993977809
44000000	0.963364104596678	172.449148623593
44400000	0.962912354924256	172.383441251978
44800000	0.962457536627871	172.317963911236
45200000	0.96200061760572	172.252812896347
45600000	0.961539998060959	172.187808452135
46000000	0.96107570161751	172.122946034726
46400000	0.960607754726695	172.058221091886
46800000	0.960136186770608	171.993629063301
47200000	0.959661030165904	171.929165380594
47600000	0.959182320467839	171.864825467062
48000000	0.958700096474344	171.800604737139
48400000	0.958214400329949	171.73649859557
48800000	0.957725277629338	171.672502436309
49200000	0.957232777520333	171.608611641124
49600000	0.956736952806072	171.544821577919
50000000	0.956237860046154	171.481127598766
52000000	0.953720008912069	171.162913106849
54000000	0.951116826150123	170.846999785416
56000000	0.948417085307308	170.533725109732
58000000	0.945604164592518	170.22327811913
60000000	0.942684392978803	169.916102495983
62000000	0.939660394926371	169.612577998978
64000000	0.936542295919972	169.313127697799
66000000	0.933334504587583	169.018060670799
68000000	0.930028155012957	168.727534084779
70000000	0.926623457659372	168.441767146017
72000000	0.923128768874798	168.160441632238
74000000	0.919542344278199	167.88398750524
76000000	0.915858676047894	167.613162365597
78000000	0.912077567416103	167.348390754387
80000000	0.908199605937594	167.0898594439
82000000	0.904226070453912	166.837657831706
84000000	0.90015899580644	166.592920768192
86000000	0.896001178072899	166.356253272086
88000000	0.89175618047745	166.128257246084
90000000	0.88742864307091	165.909372262758
92000000	0.883023947333321	165.700184636131
94000000	0.878547688896448	165.501591997285
96000000	0.874006646925059	165.314293838248
98000000	0.869408578266231	165.138993298046
100000000	0.864762344467494	164.976396121874
102000000	0.860088669267123	164.826402414963
104000000	0.855390461777194	164.690424802939
106000000	0.850680006480856	164.569215062983
108000000	0.84597116443332	164.463497126542
110000000	0.841279522909991	164.373948735018
112000000	0.836622522867088	164.301177569352
114000000	0.832020393270835	164.245667002785
116000000	0.827493591566476	164.207808263501
118000000	0.82306507051998	164.187801912034
120000000	0.818759525409328	164.185622514982
122000000	0.814624938466663	164.1985366578
124000000	0.810665771325182	164.228193767285
126000000	0.806906519888604	164.273776976182
128000000	0.803369937173622	164.334060789659
130000000	0.800078161739552	164.407663867101
132000000	0.79704984362646	164.492789416298
134000000	0.794299863098571	164.587345512694
136000000	0.791838548412811	164.688996370016
138000000	0.789671072932808	164.795231375693
140000000	0.787797094813006	164.903447671079
142000000	0.786204623434145	165.007606101839
144000000	0.78488217830883	165.108797645863
146000000	0.78381803491396	165.204903458753
148000000	0.782993700128157	165.294068079776
150000000	0.782387877520055	165.374711972222
152000000	0.781977346548615	165.445556545927
154000000	0.781737836141036	165.505631731984
156000000	0.781644837482287	165.554267878808
158000000	0.781674314207868	165.591074816199
160000000	0.781804941252767	165.616638997261
162000000	0.781990370864457	165.628830327838
164000000	0.782235016083951	165.629418002712
166000000	0.782522620183881	165.618808177804
168000000	0.782838932427421	165.597501666138
170000000	0.783171664233578	165.566062827542
172000000	0.783510386382629	165.525092857546
174000000	0.783846385964069	165.475207628392
176000000	0.784172499042851	165.417019923928
178000000	0.784484697865522	165.351077379181
180000000	0.784794748484441	165.277504409078
182000000	0.785060406909876	165.197048048593
184000000	0.785298311567216	165.110601039942
186000000	0.785506638234054	165.01865303287
188000000	0.785684146338304	164.921647695577
190000000	0.78583005627483	164.819983986354
192000000	0.785943944403196	164.71401810297
194000000	0.786025654060474	164.604065863659
196000000	0.786075220815943	164.490405330795
198000000	0.786092810202386	164.37327953552
200000000	0.786076015989927	164.252573521226
202000000	0.786007834108598	164.127827199055
204000000	0.785910439120873	164.000222254629
206000000	0.785785144927684	163.869941084232
208000000	0.785633154211642	163.737144062466
210000000	0.785455550269081	163.601971956314
212000000	0.785253291421351	163.464548064965
214000000	0.785027207421138	163.32498011152
216000000	0.784777997379111	163.183361911511
218000000	0.784506228826355	163.039774841604
220000000	0.784212337601847	162.894289130079
222000000	0.783888765032645	162.747129932684
224000000	0.783543114163671	162.598199151753
226000000	0.783164777399397	162.448055603032
228000000	0.782766469575372	162.296118460909
230000000	0.782348932865978	162.142394198541
232000000	0.781912798827413	161.986886978531
234000000	0.781458592129321	161.829598995169
236000000	0.780986733850681	161.670530771172
238000000	0.780497544358902	161.509681414732
240000000	0.779991245790977	161.347048842003
242000000	0.779462447750896	161.182829941327
244000000	0.778916884986775	161.016801846072
246000000	0.778354848973965	160.848949068079
248000000	0.777776559203356	160.679256342617
250000000	0.777182164848739	160.507708712154
252000000	0.776573213310653	160.334510688136
254000000	0.775950234673204	160.159751013921
256000000	0.775310881870387	159.983083419821
258000000	0.774654952548845	159.804479616677
260000000	0.773982189883277	159.623911740769
262000000	0.773288251440892	159.44156717044
264000000	0.772576896361914	159.257189422023
266000000	0.77184796582822	159.070739359109
268000000	0.771101263468915	158.882178494286
270000000	0.770336555010731	158.691468980904
272000000	0.769553567785376	158.498573607481
274000000	0.768751990095644	158.303455794905
276000000	0.767931470441551	158.106079596595
278000000	0.767091616607193	157.906409701818
280000000	0.766231994608579	157.704411442389
282000000	0.765349398848337	157.500273412716
284000000	0.764449221875063	157.293715808666
286000000	0.763527934772045	157.084711153218
288000000	0.762585064996953	156.87321353567
290000000	0.761620108621065	156.659177174095
292000000	0.760632529069557	156.442556415201
294000000	0.759621755760049	156.223305737987
296000000	0.7585871826361	156.001379761473
298000000	0.757528166592076	155.776733256856
300000000	0.756444025785588	155.549321164463
302000000	0.755331802903166	155.319330942227
304000000	0.754192986855566	155.086476325515
306000000	0.753026918987617	154.850698299416
308000000	0.751832909308091	154.611937489742
310000000	0.750610234896064	154.370134161558
312000000	0.749358138214881	154.125228222263
314000000	0.748075825328858	153.877159229638
316000000	0.746762464017676	153.625866405344
318000000	0.745418066855476	153.371227288164
320000000	0.7440409770682	153.113234855182
322000000	0.742628491878318	152.85207866495
324000000	0.74118120100318	152.587448506755
326000000	0.73969813826428	152.31926803233
328000000	0.738178296825333	152.047459784232
330000000	0.736620627021045	151.771945190742
332000000	0.735024034073001	151.492644566029
334000000	0.733387375686397	151.209477116287
336000000	0.731709459521052	150.922360952664
338000000	0.729989040530027	150.631213111882
340000000	0.728224818158905	150.335949585593
342000000	0.726414361859664	150.036740169867
344000000	0.724557312768344	149.733238357728
346000000	0.72265225997995	149.425340801347
348000000	0.720697734281659	149.112942007119
350000000	0.718692205061069	148.795934311508
352000000	0.716634077056951	148.474207863337
354000000	0.714521686944179	148.147650613663
356000000	0.712353567342622	147.816121283951
358000000	0.71012784267543	147.479511325186
360000000	0.707842439416696	147.137721025694
362000000	0.705494823229819	146.790902295607
364000000	0.703083464407857	146.43865699605
366000000	0.700606241413831	146.08084321102
368000000	0.698060941069556	145.717315399031
370000000	0.695445253682994	145.347924339845
372000000	0.692756767920396	144.972517090936
374000000	0.689992965410899	144.590936955787
376000000	0.687151215071163	144.203023466501
378000000	0.684228767137637	143.808612383579
380000000	0.681222746894255	143.407535716208
382000000	0.678130136376279	142.999917609791
384000000	0.674947787509683	142.585285137548
386000000	0.671672414055619	142.163440009624
388000000	0.668300578308212	141.734178299889
390000000	0.664828682840546	141.297290380892
392000000	0.661252961807197	140.85256088126
394000000	0.657569471784442	140.399768670725
396000000	0.653774082129902	139.938686878828
398000000	0.649862464844426	139.469082954547
400000000	0.645830549705209	138.990674738954
402000000	0.641673789718994	138.503587637482
404000000	0.637386542760961	138.007247729655
406000000	0.632963536367445	137.501380177897
408000000	0.628399236386603	136.98570278481
410000000	0.623687832270469	136.459926152974
412000000	0.618823221589865	135.923753934659
414000000	0.613798993752103	135.376883191096
416000000	0.60860841290659	134.819004885001
418000000	0.603244400030443	134.249804534984
420000000	0.597699514195228	133.668963066441
422000000	0.591967374316039	133.076534676944
424000000	0.586038338571356	132.471823588457
426000000	0.579903667684181	131.854479814986
428000000	0.573554161543103	131.224151065236
430000000	0.566980133646957	130.580484791303
432000000	0.560171384531329	129.923130767072
434000000	0.55311717425639	129.251744318434
436000000	0.545806194075079	128.565990357448
438000000	0.538226537451248	127.865548410711
440000000	0.530365670661726	127.150118881085
442000000	0.522213018651804	126.419874782085
444000000	0.513752176997379	125.674152208416
446000000	0.504968385696947	124.912739892663
448000000	0.495846734825632	124.135388362602
450000000	0.486370624347541	123.342058019513
452000000	0.476522548506107	122.532823741279
454000000	0.466284452415898	121.707841589638
456000000	0.455637396749934	120.867433840478
458000000	0.444561545319004	120.012136058426
460000000	0.433036163437308	119.142757821427
462000000	0.421044069336921	118.260990762921
464000000	0.408558573002351	117.367944675957
466000000	0.395556124267996	116.465796046908
468000000	0.382012410446142	115.557489500761
470000000	0.367902493128717	114.646983765366
472000000	0.35320101502273	113.739589198721
474000000	0.337882506068318	112.842437933875
476000000	0.321921832604153	111.965149839117
478000000	0.305294856883783	111.120793869901
480000000	0.2879794137036	110.327305804622
482000000	0.269964128138097	109.610131064089
484000000	0.25122906441027	109.003998026354
486000000	0.231769990447847	108.55977209771
488000000	0.211597732226466	108.352800237451
490000000	0.190748352068517	108.498170895851
492000000	0.169301752734687	109.178237287099
494000000	0.147417939013524	110.694535277768
496000000	0.125412918690288	113.569426140129
498000000	0.103929042875247	118.744762611191
500000000	0.0843308054874332	127.908049526552
505000000	0.0667178746385646	177.50606925013
