! Port1_J42::VDD
! Port2_U1::VDD
!
!Sigrity Suite Version: 19.0.2.04281.213619   002
!Computer Host Name: rmpodspbol01
!
!TouchstoneFormatFlag = 1
!
#	Hz	S	RI	R	0.1
1	0.0211887975763598	-1.52702636511057e-05	0.978811052420453	-1.50082276927158e-05	0.978811052420455	-1.50082276927609e-05	0.0211888010032264	-1.46377972726416e-05
1.12201845430196	0.0211888569352507	-1.71334179911563e-05	0.978810987160277	-1.68394102388666e-05	0.978810987160278	-1.68394102388614e-05	0.0211888605094628	-1.64237815490909e-05
1.25892541179417	0.0211888253124493	-1.92238693253674e-05	0.978811011338492	-1.88939891931431e-05	0.978811011338494	-1.88939891930945e-05	0.0211888290717386	-1.84276527229327e-05
1.41253754462275	0.0211888227398331	-2.15693322131519e-05	0.978811004545725	-2.11992116453674e-05	0.978811004545726	-2.11992116453188e-05	0.0211888267321232	-2.06759729673364e-05
1.58489319246111	0.0211888296282505	-2.42009051259267e-05	0.978810985902833	-2.37856322655898e-05	0.978810985902832	-2.37856322655786e-05	0.0211888339130988	-2.31985531045989e-05
1.77827941003892	0.0211888095605699	-2.71534633313752e-05	0.978810991140076	-2.66875256101431e-05	0.978810991140077	-2.66875256100946e-05	0.0211888142138097	-2.60288273854492e-05
1.99526231496888	0.0211887769786856	-3.04661221477986e-05	0.978811005135793	-2.99433479468703e-05	0.978811005135794	-2.99433479467384e-05	0.0211887820953616	-2.92042906746282e-05
2.23872113856834	0.0211887880072359	-3.41827569371421e-05	0.978810970718018	-3.3596212872633e-05	0.978810970718019	-3.3596212872633e-05	0.0211887937048174	-3.27669969309025e-05
2.51188643150958	0.0211887731413491	-3.83525642559113e-05	0.978810956230639	-3.76944798503864e-05	0.978810956230639	-3.76944798504211e-05	0.0211887795695416	-3.67641125227497e-05
2.81838293126445	0.0211887389397598	-4.30307051674655e-05	0.978810953564991	-4.22923664544564e-05	0.978810953564993	-4.2292366454387e-05	0.0211887462845413	-4.12485155289605e-05
3.16227766016838	0.0211887307247431	-4.82790287505697e-05	0.978810915535353	-4.74506528353805e-05	0.978810915535353	-4.74506528353666e-05	0.0211887392191308	-4.62794898350716e-05
3.54813389233576	0.0211887017211718	-5.41668421868669e-05	0.978810886587227	-5.3237471626592e-05	0.978810886587228	-5.32374716266173e-05	0.0211887116562197	-5.19234816670697e-05
3.98107170553497	0.0211886649375803	-6.07718217543844e-05	0.978810850851123	-5.97291614645827e-05	0.978810850851123	-5.97291614645682e-05	0.0211886766748941	-5.82549528334344e-05
4.46683592150963	0.0211886190981081	-6.81809729258659e-05	0.97881080603411	-6.70112505185283e-05	0.978810806034112	-6.70112505185179e-05	0.0211886330866737	-6.53573119800271e-05
5.01187233627272	0.0211885617929886	-7.64917365472587e-05	0.978810750229881	-7.51795070517494e-05	0.978810750229883	-7.51795070517668e-05	0.0211885785884802	-7.3323973366346e-05
5.62341325190349	0.0211884876676129	-8.58131824095637e-05	0.978810683566921	-8.43411460493895e-05	0.978810683566922	-8.43411460494034e-05	0.0211885079549414	-8.22595030010725e-05
6.30957344480193	0.0211884044245014	-9.62673491646613e-05	0.978810592024165	-9.46161282590896e-05	0.978810592024164	-9.46161282590827e-05	0.021188429042738	-9.22808992435131e-05
7.07945784384138	0.0211882925899551	-0.000107990719647174	0.97881048762142	-0.000106138613126815	0.978810487621422	-0.000106138613126826	0.0211883225601124	-0.000103519019763521
7.94328234724282	0.0211881577100972	-0.000121135851125324	0.978810356122566	-0.000119058570219793	0.978810356122567	-0.000119058570219766	0.021188194263229	-0.000116120131648731
8.91250938133745	0.021187992417625	-0.000135873187725871	0.978810194930669	-0.00013354356226045	0.978810194930669	-0.000133543562260433	0.0211880370250639	-0.00013024766113625
10	0.0211877910617477	-0.000152393094034205	0.978809998621056	-0.000149780730905665	0.978809998621058	-0.000149780730905658	0.0211878454594643	-0.000146084141042585
11.2201845430196	0.0211875467005287	-0.000170908129599422	0.978809762170901	-0.000167979058176584	0.978809762170903	-0.000167979058176594	0.0211876129028956	-0.000163833393864402
12.5892541179417	0.0211872559740336	-0.000191655676094721	0.978809476633707	-0.000188371928830057	0.978809476633707	-0.000188371928830047	0.021187336278182	-0.000183723049010768
14.1253754462275	0.0211869100588107	-0.000214900965135587	0.978809138894507	-0.000211220118517475	0.978809138894508	-0.00021122011851747	0.0211870070266766	-0.000206007450012442
15.8489319246111	0.0211865040780659	-0.000240940642854841	0.978808743127977	-0.000236815300943183	0.978808743127978	-0.000236815300943177	0.0211866204976592	-0.000230971064539424
17.7827941003892	0.0211860342985448	-0.000270107007991831	0.978808284749883	-0.000265484191531572	0.978808284749884	-0.000265484191531593	0.0211861731138199	-0.000258932543960609
19.9526231496888	0.0211854977732338	-0.000302772998461515	0.978807761607585	-0.000297593465437385	0.978807761607586	-0.000297593465437358	0.0211856619958062	-0.000290249496297947
22.3872113856834	0.0211848944061952	-0.000339358038704097	0.97880717236373	-0.000333555483710671	0.978807172363731	-0.000333555483710665	0.0211850870217083	-0.000325324080678575
25.1188643150958	0.0211842247942788	-0.000380334702322429	0.978806518524914	-0.000373834838432395	0.978806518524915	-0.000373834838432398	0.0211844486775317	-0.000364609386823084
28.1838293126445	0.0211834912488358	-0.000426236102757241	0.978805801986183	-0.000418955607039384	0.978805801986185	-0.000418955607039376	0.0211837491227782	-0.000408616512017672
31.6227766016838	0.021182695394582	-0.000477663829718268	0.978805025140176	-0.000469509157139269	0.978805025140176	-0.000469509157139265	0.0211829898559532	-0.000457922171095578
35.4813389233575	0.0211818380966244	-0.000535296283721386	0.97880418751662	-0.000526162333985739	0.978804187516621	-0.000526162333985737	0.0211821717313112	-0.00051317669297947
39.8107170553497	0.0211809153236149	-0.00059989731850649	0.978803286295301	-0.000589665971956161	0.978803286295302	-0.000589665971956161	0.0211812909094728	-0.000575112326076677
44.6683592150963	0.0211799184269792	-0.000672325287949015	0.978802312409133	-0.00066086380051715	0.978802312409136	-0.000660863800517147	0.0211803392256542	-0.000644551931080981
50.1187233627272	0.0211788312648473	-0.000753542724151092	0.978801250267955	-0.000740701977278548	0.978801250267955	-0.000740701977278555	0.0211793013731456	-0.000722418285148751
56.2341325190349	0.0211776295472985	-0.000844626986867301	0.978800076404192	-0.000830239577144417	0.978800076404194	-0.000830239577144417	0.0211781542788942	-0.000809744312494495
63.0957344480193	0.0211762804607802	-0.000946782249029802	0.978798758614768	-0.000930660387208703	0.978798758614769	-0.000930660387208709	0.0211768667448613	-0.000907684591261077
70.7945784384138	0.0211747422364357	-0.00106135313879257	0.978797256228964	-0.00104328634020558	0.978797256228964	-0.00104328634020558	0.0211753989994117	-0.0010175284451833
79.4328234724281	0.0211729645504373	-0.00118984035153219	0.978795520072103	-0.00116959286881721	0.978795520072103	-0.00116959286881721	0.0211737030711601	-0.00114071491973719
89.1250938133745	0.0211708891877675	-0.00133391851988733	0.978793493344105	-0.00131122648768888	0.978793493344107	-0.00131122648768888	0.0211717234040867	-0.00127884992177002
100	0.021168451203363	-0.0014954567204204	0.978791112483774	-0.0014700249651207	0.978791112483775	-0.0014700249651207	0.0211693979500063	-0.00143372588420396
112.201845430196	0.0211655804195683	-0.00167654212749607	0.978788308924419	-0.00164804057858624	0.978788308924421	-0.00164804057858624	0.0211666595743738	-0.00160734444485221
125.892541179417	0.021162203539997	-0.00187950749186873	0.978785010915099	-0.00184756713035183	0.978785010915101	-0.00184756713035184	0.021163438054808	-0.00180194278296226
141.253754462275	0.0211582462543138	-0.00210696328253427	0.978781145616253	-0.00207117152982856	0.978781145616254	-0.00207117152982856	0.0211596620615029	-0.00202002441452058
158.489319246111	0.0211536350384802	-0.00236183536459786	0.978776640944045	-0.00232173081019636	0.978776640944046	-0.00232173081019637	0.0211552608637282	-0.00226439527991921
177.827941003892	0.0211482974112789	-0.00264740894392248	0.978771425706725	-0.00260247528302384	0.978771425706725	-0.00260247528302384	0.021150164553942	-0.0025382058252501
199.526231496888	0.0211421598100419	-0.00296737910574976	0.978765427563146	-0.00291703817081494	0.978765427563147	-0.00291703817081494	0.0211443020328415	-0.00284499939931171
223.872113856834	0.0211351413758538	-0.00332590771059959	0.978758566975406	-0.00326951148627091	0.978758566975407	-0.00326951148627091	0.0211375950868877	-0.00318876675329448
251.188643150958	0.021127143046046	-0.00372768585302953	0.97875074654453	-0.00366450739577588	0.97875074654453	-0.00366450739577588	0.0211299479991152	-0.00357400589857667
281.838293126445	0.0211180318827149	-0.00417800084295616	0.978741835715059	-0.00410722405846962	0.97874183571506	-0.00410722405846963	0.0211212326009909	-0.00400578633982165
316.227766016838	0.0211076211762289	-0.00468280694083417	0.97873165131249	-0.00460351519519453	0.978731651312491	-0.00460351519519453	0.0211112692673323	-0.00448981695074328
354.813389233575	0.0210956476705622	-0.00524879988177717	0.978719935293498	-0.00515996341613756	0.978719935293497	-0.00515996341613756	0.0210998051148206	-0.00503251751944544
398.107170553497	0.0210817474109448	-0.00588349627130276	0.978706331050989	-0.00578395837232276	0.97870633105099	-0.00578395837232276	0.0210864908354071	-0.00564109498348576
446.683592150963	0.0210654307906584	-0.00659531986771224	0.978690358987263	-0.00648378169281102	0.978690358987264	-0.00648378169281103	0.0210708567170799	-0.00632362626966577
501.187233627272	0.02104605694351	-0.00739369726017222	0.978671391368297	-0.00726870116249695	0.978671391368297	-0.00726870116249696	0.0210522879940769	-0.00708915013024
562.341325190349	0.0210228063237596	-0.00828916547225735	0.978648625403192	-0.00814907662504881	0.978648625403194	-0.00814907662504882	0.021029998420131	-0.00794777039691437
630.957344480193	0.0209946501058385	-0.00929349377903454	0.978621053196407	-0.00913647985457174	0.978621053196407	-0.00913647985457174	0.0210030007615578	-0.00891077284758661
707.945784384138	0.0209603146022246	-0.0104198218141966	0.978587426793021	-0.0102438304393318	0.978587426793021	-0.0102438304393318	0.020970072476685	-0.00999075767840144
794.328234724281	0.0209182385706286	-0.0116828161332515	0.978546216227833	-0.0114855498041878	0.978546216227834	-0.0114855498041878	0.0209297145161891	-0.0112017896532044
891.250938133746	0.0208665215725707	-0.0130988479440768	0.978495558783922	-0.0128777360276565	0.978495558783923	-0.0128777360276565	0.0208801014846463	-0.0125595685161861
1000	0.0208028603720525	-0.0146861956275155	0.978433196491766	-0.0144383629992423	0.978433196491767	-0.0144383629992423	0.0208190202558636	-0.0140816231143597
1122.01845430196	0.0207244690155157	-0.0164652767295172	0.978356397610285	-0.0161875084907985	0.978356397610285	-0.0161875084907985	0.0207437928614849	-0.0157875336836732
1258.92541179417	0.0206279753994021	-0.0184589147989436	0.978261855049744	-0.0181476164050827	0.978261855049745	-0.0181476164050827	0.0206511767913842	-0.0176991874151082
1412.53754462275	0.0205092838926295	-0.0206926461518916	0.978145551552954	-0.0203437981725951	0.978145551552955	-0.0203437981725951	0.0205372327417876	-0.0198410721515782
1584.89319246111	0.0203633887979322	-0.0231950696064243	0.978002576759608	-0.0228041763041802	0.97800257675961	-0.0228041763041803	0.0203971452884424	-0.0222406111474902
1778.27941003892	0.0201841202585051	-0.0259982382120902	0.977826878181103	-0.0255602691960189	0.977826878181104	-0.0255602691960189	0.0202249789111624	-0.024928538021188
1995.26231496888	0.0199638018758577	-0.0291380863545598	0.977610925766485	-0.0286474107812474	0.977610925766484	-0.0286474107812475	0.0200133494766885	-0.0279393056690832
2238.72113856834	0.0196927997932543	-0.0326548798089942	0.977345270219715	-0.0321051929577119	0.977345270219714	-0.0321051929577119	0.0197529917197592	-0.0313115173647283
2511.88643150958	0.0193589451928802	-0.036593672107642	0.977017977266819	-0.0359779145789688	0.977017977266821	-0.0359779145789688	0.0194322051916049	-0.0350883641890901
2818.38293126445	0.0189468145485381	-0.0410047491817246	0.976613922426928	-0.0403150193672666	0.976613922426929	-0.0403150193672666	0.0190361634341385	-0.0393180514848134
3162.27766016838	0.0184368507143571	-0.0459440447564147	0.976113929558554	-0.0451715055483391	0.976113929558555	-0.0451715055483391	0.0185460698609052	-0.0440541973773544
3548.13389233575	0.0178043035128985	-0.0514735089886195	0.975493732209333	-0.0506082899572069	0.975493732209334	-0.0506082899572069	0.017938139744254	-0.0493561862965739
3981.07170553497	0.0170179582521988	-0.0576614085275572	0.974722726810743	-0.0566925051255483	0.974722726810743	-0.0566925051255483	0.0171823779730025	-0.0552894562551811
4466.83592150963	0.0160386092891094	-0.0645825249224758	0.973762475743787	-0.0634976968669889	0.973762475743788	-0.063497696866989	0.0162411115190892	-0.0619256878934434
5011.87233627273	0.0148172258578538	-0.07231819871012	0.97256490864593	-0.0711038707422463	0.97256490864593	-0.0711038707422463	0.0150672261438667	-0.0693428446107676
5623.41325190349	0.0132927509101661	-0.0809561384908171	0.97107016391809	-0.0795973083910355	0.97107016391809	-0.0795973083910355	0.0136020505200327	-0.0776249863013561
6309.57344480193	0.0113894750790668	-0.0905898782074713	0.96920401370349	-0.089070039365257	0.96920401370349	-0.0890700393652569	0.0117728322205157	-0.0868617445933413
7079.45784384138	0.00901393800764816	-0.101317721365088	0.96687482543542	-0.0996188104970259	0.966874825435419	-0.0996188104970259	0.00948975955805964	-0.0971473047197543
7943.28234724281	0.00605133326331764	-0.113240957472753	0.963970036510879	-0.11134334237867	0.963970036510879	-0.11134334237867	0.00664250622344165	-0.10857868766524
8912.50938133746	0.00236143660753685	-0.12646107307786	0.960352161292035	-0.124343600772939	0.960352161292036	-0.124343600772939	0.00309631744506333	-0.121253065590982
10000	-0.00222584898577871	-0.141075609166689	0.955854421835148	-0.138715741461033	0.955854421835149	-0.138715741461033	-0.0013122727887519	-0.135263775477344
11220.1845430196	-0.0079151218502872	-0.157172244357908	0.950276207833252	-0.154546316002438	0.950276207833252	-0.154546316002438	-0.00677989198551587	-0.150694626167153
12589.2541179417	-0.0149498972268959	-0.17482062361703	0.943378744654097	-0.171904267263203	0.943378744654098	-0.171904267263203	-0.0135405752895729	-0.167612036428528
14125.3754462276	-0.023616170362814	-0.194061431511531	0.934881596683745	-0.190830223218731	0.934881596683745	-0.190830223218731	-0.0218691922590872	-0.186054521652615
15848.9319246111	-0.0342441446703938	-0.214892271280176	0.924460969544665	-0.211322658597352	0.924460969544665	-0.211322658597352	-0.0320831090271806	-0.206019106686249
17782.7941003892	-0.0472067123498765	-0.237250123504059	0.911751196715522	-0.233320702410844	0.911751196715522	-0.233320702410844	-0.044540726648137	-0.227444446820355
19952.6231496888	-0.0629127925820441	-0.260990614643823	0.896351269121164	-0.256683817214079	0.896351269121163	-0.256683817214079	-0.0596350724425138	-0.250190878233025
22387.2113856834	-0.0817931978244831	-0.285865142418602	0.877838692395803	-0.281169377044138	0.877838692395804	-0.281169377044138	-0.0777802032705363	-0.274018404977305
25118.8643150958	-0.104276524247914	-0.311498183044325	0.855793127317645	-0.306410425163977	0.855793127317645	-0.306410425163977	-0.0993880125664931	-0.298564858812672
28183.8293126445	-0.130753008114031	-0.337368845931496	0.829831831965543	-0.331897596384556	0.829831831965543	-0.331897596384556	-0.124833460762567	-0.323328142435004
31622.7766016838	-0.161525827729897	-0.362802680836208	0.799657415308318	-0.356971094306454	0.799657415308319	-0.356971094306454	-0.154407729629075	-0.347658330613591
35481.3389233575	-0.196752369391638	-0.386981200542819	0.765115431041656	-0.380830045339	0.765115431041657	-0.380830045339001	-0.188261725707147	-0.370766803187514
39810.7170553497	-0.236382480211409	-0.408976419287426	0.726254926435956	-0.402566379042522	0.726254926435957	-0.402566379042522	-0.226346681441029	-0.391759428260551
44668.3592150963	-0.280105741598628	-0.427814617032656	0.683380146053979	-0.421227366285365	0.683380146053979	-0.421227366285366	-0.26836342534546	-0.409697838742396
50118.7233627273	-0.327323241836512	-0.442566885500243	0.637078215181679	-0.435904415637006	0.637078215181679	-0.435904415637007	-0.31373519819467	-0.423686448042549
56234.1325190349	-0.377158497292187	-0.452454783226773	0.588208442151979	-0.445836681337044	0.58820844215198	-0.445836681337044	-0.36161809199807	-0.432973978880862
63095.7344480193	-0.428515211908393	-0.456950800305766	0.537845704426695	-0.450509579392593	0.537845704426694	-0.450509579392593	-0.410956493796529	-0.437049988614162
70794.5784384137	-0.480180739662099	-0.45584602302179	0.487181561459066	-0.449726734734027	0.487181561459066	-0.449726734734027	-0.460578322764352	-0.435713399732872
79432.8234724282	-0.530945922530347	-0.449275766590125	0.437402026368492	-0.443629492854443	0.437402026368492	-0.443629492854443	-0.509316351036659	-0.42909510779625
89125.0938133746	-0.579719782573559	-0.437698520082126	0.389572136998299	-0.432662411933	0.389572136998299	-0.432662411933	-0.556125608579998	-0.417626330875543
100000	-0.625635197301697	-0.421805640414749	0.344541928852941	-0.417505068721076	0.344541928852942	-0.417505068721076	-0.600169227768429	-0.401964584546156
112201.845430196	-0.668126512847979	-0.402415097961945	0.302882145332448	-0.398973623262164	0.302882145332448	-0.398973623262164	-0.640877428586999	-0.382896049633889
125892.541179417	-0.706861531937353	-0.380372872887285	0.264913514945486	-0.377899116045609	0.264913514945487	-0.377899116045609	-0.677930595834384	-0.361227249004401
141253.754462276	-0.741740970565129	-0.356470673103463	0.230729360264542	-0.355058164599118	0.230729360264542	-0.355058164599118	-0.711231051996133	-0.337708871892806
158489.319246111	-0.772855600230454	-0.331383061716285	0.200244464967888	-0.331117813177002	0.200244464967887	-0.331117813177002	-0.740851687363965	-0.312981084771979
177827.941003892	-0.800408292321047	-0.305643197192462	0.173264822469211	-0.30660748870383	0.173264822469211	-0.30660748870383	-0.766969278760468	-0.287548095672035
199526.231496888	-0.824654542103768	-0.279642749444291	0.149546150035424	-0.281918837009481	0.149546150035424	-0.281918837009481	-0.78980660454333	-0.261777796222203
223872.113856834	-0.845856754954344	-0.253650747954039	0.1288390833333	-0.257324252567002	0.1288390833333	-0.257324252567002	-0.8095874183941	-0.235919913453994
251188.643150958	-0.864255267935838	-0.227841056330108	0.110918146010221	-0.233003826694216	0.110918146010221	-0.233003826694216	-0.826507118203174	-0.210132288953735
281838.293126445	-0.880054794777297	-0.202320516951977	0.0955958646010494	-0.209072963271392	0.0955958646010493	-0.209072963271392	-0.840717628967417	-0.184507741776278
316227.766016838	-0.893422126986558	-0.177151980281317	0.0827262165613074	-0.185605032169346	0.0827262165613074	-0.185605032169346	-0.852322194426263	-0.159095940478461
354813.389233575	-0.904489523187998	-0.152369485922317	0.0722030373951015	-0.162646431666966	0.0722030373951014	-0.162646431666965	-0.861374234860772	-0.133917751794067
398107.170553497	-0.913358345807525	-0.127985851175287	0.0639589731945079	-0.140224422194414	0.0639589731945079	-0.140224422194414	-0.867874271942425	-0.10897250727713
446683.592150963	-0.920098763319024	-0.1039951346721	0.0579694874121459	-0.118350378964993	0.0579694874121459	-0.118350378964993	-0.87175971080981	-0.0842410548966216
501187.233627272	-0.924827521871954	-0.0803480198881115	0.0541921085013764	-0.0969963488598861	0.0541921085013764	-0.096996348859886	-0.872954175218085	-0.0596395710997555
