
! Port1_U1:: 
! Port2_D1_479:: 
! Port4_D1_478:: 
! Port6_D1_477:: 
! Port8_D1_476:: 
! Port10_D1_475:: 
! Port12_D1_474:: 
! Port14_D1_473:: 
! Port16_D1_472::
!
!BroadbandSPICE Version: 19.0.1.04171.211823   001
!
!TouchstoneFormatFlag = 1
! GNDNET
!NETSLIST
!
!(null)
!
#	Hz	S	RI	R	0.1
1000	-0.7472461389632	3.55724706926451e-05	0.217933410334287	-2.37351325998398e-06	0.217971802719673	-3.40858042406964e-06	0.217992020893695	-3.16785492585237e-06
				0.218165058348138	-2.64210669698331e-06	0.219423765657096	-2.31960066398299e-05	0.219007395068686	-2.51686245329556e-05	0.218497558695804	-1.46207840323337e-06
				0.218204287745545	-2.28697213271543e-05
			0.21793329087217	-1.04917233780595e-05	-0.73382414735541	2.68870186375602e-05	0.242076379648721	2.85338063908331e-06	0.233170195390925	5.03148852680362e-06
				0.229512378317184	3.99123028980374e-06	0.202706391283632	-1.761535192116e-05	0.202610627156213	-1.78673923002324e-05	0.20263487728128	-8.40878805606429e-06
				0.203129568674881	-1.29445129146033e-05
			0.217971677397768	-1.18044299273284e-05	0.242076380888188	5.25104543920236e-06	-0.74256189005841	3.14939642707917e-05	0.23926296773184	2.18647744962728e-06
				0.233700972490824	4.47009648090759e-06	0.202478647927328	-1.95918165687455e-05	0.202320993683785	-2.03554044388103e-05	0.202217759639281	-8.68877566911871e-06
				0.202481978020847	-1.59473471931248e-05
			0.21799192576252	-9.57524455226796e-06	0.23317019524628	4.74205530028576e-06	0.239262967683834	2.06138570288889e-06	-0.741871639044729	3.22779435004909e-05
				0.243376158718415	4.68288759062111e-06	0.202226238001063	-1.81983745585288e-05	0.202021403425608	-1.90034843729388e-05	0.201828488505219	-8.83477932547091e-06
				0.201943825485151	-1.56287993162601e-05
			0.218165013871245	-5.95703848966782e-06	0.229512378373454	3.98410481146243e-06	0.233700972494023	4.40271421194353e-06	0.243376157563684	2.51280225906911e-06
				-0.732416262328888	3.12764958374797e-05	0.202192405781133	-1.5158093954438e-05	0.201958016999247	-1.56320461287446e-05	0.2017132322642	-8.94600474817308e-06
				0.20174786906516	-1.30728489329273e-05
			0.219423898809327	-1.73895278120359e-05	0.202706509256442	-1.03873553981572e-05	0.202478785115421	-1.1202634200311e-05	0.202226349893985	-1.12410101826137e-05
				0.202192470286217	-1.06551363688312e-05	-0.738203518459117	8.37069639357537e-05	0.242282954034651	-6.0855608614484e-05	0.234935971712513	7.02164337136223e-06
				0.231906237951047	-7.16997840901005e-06
			0.219007603021279	-1.74636459650433e-05	0.202610765321151	-1.02338647924742e-05	0.202321163961399	-1.11062283116878e-05	0.202021546362252	-1.1148753331021e-05
				0.201958100141992	-1.05581270215083e-05	0.242283274327901	-5.08092390627588e-05	-0.745754195129526	0.000123206192748104	0.240011827883704	6.48494224707301e-06
				0.235490397318968	-3.10142033468826e-05
			0.218497400303129	-1.23486381246766e-05	0.202634875799776	-1.04792882089749e-05	0.202217758356819	-1.06375412391982e-05	0.201828487203784	-1.07546961992823e-05
				0.201713231107878	-1.06398301311976e-05	0.234935487540768	-1.96972851624811e-05	0.240011112739139	-3.0016255189966e-05	-0.7451884915695	2.26345720669966e-05
				0.243298214265562	-2.68049746047221e-05
			0.218204402321555	-1.75884795759758e-05	0.203129611531631	-9.84679704671588e-06	0.202482055785669	-1.09032493820763e-05	0.201943896209737	-1.1007224127782e-05
				0.201747901235999	-1.04388591446777e-05	0.231906180485419	-1.00415146381112e-05	0.23549020684361	-3.62927922992468e-05	0.243298793350671	7.54547194422505e-06
				-0.738253410672511	5.76300183531372e-05
1122.01845430196	-0.747246079247461	3.99119994462818e-05	0.217933410200193	-2.66312561316776e-06	0.217971802485176	-3.82449003011018e-06	0.217992020690814	-3.5543915923386e-06
				0.218165058215357	-2.9644924128105e-06	0.21942367685693	-2.60246886521215e-05	0.219007287142175	-2.82373929627339e-05	0.218497558702052	-1.64047895338582e-06
				0.218204204676385	-2.56587453049195e-05
			0.217933259814857	-1.17713932844773e-05	-0.733824145164749	3.01677299707172e-05	0.242076379351979	3.20154589395337e-06	0.233170195662451	5.64542286690016e-06
				0.229512378583064	4.47823393324252e-06	0.2027063601877	-1.97641789111543e-05	0.202610590854878	-2.00467915721459e-05	0.20263487706074	-9.43481532536775e-06
				0.203129557067022	-1.45237815623123e-05
			0.217971644723218	-1.3244249242725e-05	0.242076380912376	5.89176989317937e-06	-0.742561887228015	3.53368077778284e-05	0.239262967475465	2.45326819036399e-06
				0.233700972673622	5.01553067691635e-06	0.202478611810798	-2.19817164004799e-05	0.202320949016368	-2.28382125844292e-05	0.202217759406003	-9.74896659075485e-06
				0.202481957305341	-1.78928530734594e-05
			0.217991900934566	-1.07431922097533e-05	0.233170195480302	5.32067345842569e-06	0.239262967415029	2.31291294564486e-06	-0.741871636102254	3.62164468644191e-05
				0.243376158634838	5.2542863536135e-06	0.202226208430425	-2.04183713264857e-05	0.20202136583314	-2.13214822965004e-05	0.201828488268478	-9.91278538690197e-06
				0.201943806587654	-1.7535469432424e-05
			0.218165002225428	-6.68371728888566e-06	0.229512378653928	4.4702389977735e-06	0.23370097267765	4.93992652591037e-06	0.243376157181119	2.81941071177981e-06
				-0.732416259838035	3.50928043516468e-05	0.202192388567099	-1.70073510464084e-05	0.201957994973873	-1.75389935201432e-05	0.20171323202653	-1.00375823637734e-05
				0.201747860237866	-1.46678281961928e-05
			0.219423844469609	-1.95104706893407e-05	0.202706508695988	-1.16548041847868e-05	0.202478784507973	-1.2569562044723e-05	0.20222634928515	-1.26126206007578e-05
				0.202192469768394	-1.19552594199035e-05	-0.738203178703595	9.3914381229507e-05	0.242282630429411	-6.82743012816111e-05	0.234935972004023	7.87841336839545e-06
				0.231906188563084	-8.04394874151384e-06
			0.21900754890616	-1.95936366708953e-05	0.202610764778401	-1.14825849018193e-05	0.202321163363674	-1.2461392863186e-05	0.202021545763349	-1.25091067155115e-05
				0.201958099634903	-1.18464131470304e-05	0.242283033595546	-5.70043995522687e-05	-0.745753623379034	0.000138227570682169	0.240011828038951	7.27622484235072e-06
				0.235490244879162	-3.47957388701138e-05
			0.21849735930886	-1.3854717746672e-05	0.202634875195656	-1.17579544709186e-05	0.202217757791473	-1.19355173326851e-05	0.201828486630072	-1.20669673525126e-05
				0.201713230570804	-1.19380855284632e-05	0.234935362511947	-2.20983642008991e-05	0.240010927807426	-3.36748905729216e-05	-0.745188490415298	2.53964072395399e-05
				0.243298064561685	-3.00729520408661e-05
			0.218204348906463	-1.97337147740569e-05	0.203129611016829	-1.1048287761868e-05	0.202482055198842	-1.22336467630755e-05	0.201943895618612	-1.23503083410478e-05
				0.201747900735846	-1.17125923911811e-05	0.231906116224398	-1.12655583678641e-05	0.235490005124109	-4.07169325295122e-05	0.243298793537209	8.46615872496764e-06
				-0.738253181864658	6.46577732552748e-05
1258.92541179417	-0.747246004079232	4.47806311626267e-05	0.217933410031379	-2.9880759907799e-06	0.217971802189961	-4.29114823886737e-06	0.217992020435402	-3.98809282616715e-06
				0.218165058048195	-3.32621511085018e-06	0.21942356508229	-2.91978381085858e-05	0.219007151298659	-3.16796727010699e-05	0.218497558709917	-1.8406476643204e-06
				0.218204100114465	-2.8787461517427e-05
			0.217933220721022	-1.32069945994804e-05	-0.73382414240687	3.38487481669919e-05	0.242076378978403	3.59219380098072e-06	0.233170196004282	6.33426847979352e-06
				0.229512378917787	5.0246609642335e-06	0.202706321046485	-2.21749670115094e-05	0.202610545163459	-2.24918076333014e-05	0.202634876783096	-1.05860368347484e-05
				0.203129542455721	-1.62956673310726e-05
			0.217971603593646	-1.4859530834874e-05	0.242076380942826	6.610674557146e-06	-0.74256188366476	3.96485485593046e-05	0.239262967152707	2.75261238315604e-06
				0.233700972903752	5.62751788273448e-06	0.202478566350034	-2.46629546140133e-05	0.202320892794824	-2.56235870550323e-05	0.202217759112324	-1.09385203471859e-05
				0.202481931229931	-2.00755961697475e-05
			0.217991869682005	-1.20534824300623e-05	0.233170195774919	5.96989366867555e-06	0.239262967076624	2.59513121388269e-06	-0.741871632397898	4.06355197453415e-05
				0.243376158529621	5.89540633418324e-06	0.202226171209109	-2.29090257062627e-05	0.202021318516595	-2.39219980708612e-05	0.201828487970438	-1.11223280585935e-05
				0.201943782800632	-1.96746516728415e-05
			0.21816498756606	-7.49898603460406e-06	0.229512379007023	5.01569047469567e-06	0.233700972908822	5.54268862764151e-06	0.243376156699498	3.16343113858394e-06
				-0.732416256702232	3.9374772451682e-05	0.202192366899304	-1.90821237725638e-05	0.201957967251113	-1.96784378788187e-05	0.201713231727322	-1.12623525697034e-05
				0.201747849126546	-1.64573626982356e-05
			0.219423776068725	-2.18898364420397e-05	0.202706507990417	-1.30769050046308e-05	0.202478783743242	-1.410328020262e-05	0.202226348518673	-1.41515926909905e-05
				0.202192469116493	-1.34140213857122e-05	-0.738202751046501	0.000105364662491851	0.242282223118411	-7.65954020503102e-05	0.234935972371012	8.83972508574836e-06
				0.231906126396864	-9.02418876158286e-06
			0.219007480787991	-2.19831559225525e-05	0.202610764095119	-1.28836718039087e-05	0.202321162611182	-1.39819123912373e-05	0.202021545009377	-1.40354482082293e-05
				0.201958098996517	-1.32918938660184e-05	0.242282730580739	-6.39536267800533e-05	-0.745752903736117	0.000155076865836754	0.240011828234395	8.16405850278682e-06
				0.235490052998199	-3.90375495344281e-05
			0.218497307706776	-1.55442856023934e-05	0.202634874435113	-1.31926414951083e-05	0.202217757079745	-1.33918703612297e-05	0.201828485907811	-1.35393596989281e-05
				0.201713229894669	-1.33947519479651e-05	0.234935205135733	-2.47914489283559e-05	0.240010695040208	-3.77783385351137e-05	-0.745188488962245	2.84952371358711e-05
				0.243297876124572	-3.37385598138738e-05
			0.218204281669453	-2.21403437768192e-05	0.203129610368732	-1.23963824178028e-05	0.202482054460071	-1.37263770707194e-05	0.20194389487443	-1.38572735063539e-05
				0.20174790010619	-1.31417445125678e-05	0.231906035337764	-1.26384606276367e-05	0.235489751226606	-4.56791473854065e-05	0.243298793772046	9.49918626585462e-06
				-0.738252893856892	7.25413242129672e-05
1412.53754462275	-0.747245909462988	5.0242761442335e-05	0.217933409818855	-3.35267627269659e-06	0.217971801818307	-4.81474729737565e-06	0.217992020113858	-4.47471355910892e-06
				0.218165057837751	-3.73207461875394e-06	0.219423424395108	-3.27572045303358e-05	0.219006980326027	-3.55406537809387e-05	0.218497558719819	-2.06524065388946e-06
				0.218203968504087	-3.22970630994771e-05
			0.217933171512731	-1.48174664737328e-05	-0.733824138934908	3.797891786016e-05	0.242076378508098	4.03050805486359e-06	0.233170196434622	7.10716590385542e-06
				0.229512379339178	5.63776211441651e-06	0.202706271780508	-2.48795832871307e-05	0.202610487656034	-2.5234722858853e-05	0.202634876433563	-1.18777285830325e-05
				0.203129524064555	-1.82836389405685e-05
			0.217971551822897	-1.66715927288878e-05	0.242076380981162	7.4172988605062e-06	-0.742561879178888	4.44864005080305e-05	0.239262966746379	3.0884821746345e-06
				0.233700973193467	6.31417878231623e-06	0.202478509129814	-2.76709671571218e-05	0.202320822034158	-2.87482891100054e-05	0.202217758742603	-1.22732215820771e-05
				0.202481898409062	-2.25244618141579e-05
			0.217991830343668	-1.35234141346723e-05	0.233170196145819	6.69833066731682e-06	0.239262966650597	2.91178540373414e-06	-0.74187162773439	4.55938002449869e-05
				0.243376158397159	6.61475481731964e-06	0.202226124359616	-2.57032710374893e-05	0.202021258963755	-2.68393719736324e-05	0.201828487595229	-1.24794572248692e-05
				0.201943752860119	-2.20746604214088e-05
			0.218164969113937	-8.41362206985937e-06	0.229512379451544	5.62769702514416e-06	0.23370097319985	6.21899878918084e-06	0.243376156093174	3.5494285256322e-06
				-0.732416252754495	4.41792190024195e-05	0.202192339626535	-2.14098765112081e-05	0.201957932359008	-2.20786715752695e-05	0.201713231350642	-1.26365673104357e-05
				0.201747835140732	-1.8465166354287e-05
			0.219423689971008	-2.45590043837558e-05	0.202706507102157	-1.46725282149197e-05	0.202478782780503	-1.58241401251472e-05	0.202226347553735	-1.58783476200712e-05
				0.202192468295799	-1.50507791041498e-05	-0.738202212768658	0.000118208376512446	0.242281710477107	-8.59278639565523e-05	0.234935972833024	9.91833452996796e-06
				0.231906048149349	-1.01235125055425e-05
			0.219007395046128	-2.46637186336227e-05	0.202610763234918	-1.44557170160239e-05	0.202321161663852	-1.56879632102037e-05	0.202021544060181	-1.57480313765747e-05
				0.201958098192836	-1.49137497833771e-05	0.24228234918577	-7.17481654566761e-05	-0.74575199799433	0.0001739750710435	0.240011828480445	9.16022423436919e-06
				0.235489811480937	-4.37953267574726e-05
			0.218497242754128	-1.7439614703149e-05	0.202634873477647	-1.48023866448633e-05	0.202217756183732	-1.50259251918102e-05	0.20182848499854	-1.51914109358577e-05
				0.201713229043465	-1.50291584187436e-05	0.234935007051613	-2.78117695778081e-05	0.240010402079716	-4.2380211753787e-05	-0.745188487132961	3.19721812771844e-05
				0.243297638942095	-3.78498532506922e-05
			0.218204197036711	-2.48401112164869e-05	0.203129609552826	-1.39089693598711e-05	0.202482053530014	-1.5401247874323e-05	0.201943893937561	-1.55481160797547e-05
				0.2017478993135	-1.47452794438101e-05	0.231905933528437	-1.41781799270229e-05	0.235489431671454	-5.12443700436431e-05	0.243298794067689	1.06582622055331e-05
				-0.738252531346715	8.13843853837543e-05
1584.89319246111	-0.747245790371865	5.63705754879104e-05	0.217933409551303	-3.76176446307007e-06	0.217971801350423	-5.40223501437142e-06	0.217992019709057	-5.02071092333161e-06
				0.218165057572818	-4.18745642754924e-06	0.21942324732599	-3.67495156014138e-05	0.219006765154291	-3.98708817260078e-05	0.218497558732285	-2.31723813565598e-06
				0.218203802856493	-3.62336642658962e-05
			0.217933109575727	-1.66240230021428e-05	-0.733824134563966	4.26130435519407e-05	0.24207637791602	4.52230486810032e-06	0.233170196976387	7.97437098425182e-06
				0.229512379869678	6.32567283096617e-06	0.20270620977399	-2.79137432257903e-05	0.202610415281704	-2.83117060896594e-05	0.202634875993527	-1.3327030519206e-05
				0.20312950091679	-2.0514014676278e-05
			0.217971486660559	-1.87043164095801e-05	0.242076381029423	8.32234621951675e-06	-0.742561873531512	4.99145585806571e-05	0.239262966234842	3.46533439531602e-06
				0.233700973558198	7.08462492820373e-06	0.202478437112033	-3.10454674116135e-05	0.202320732980376	-3.22535007835988e-05	0.202217758277152	-1.37707809531169e-05
				0.202481857099743	-2.52718343584127e-05
			0.217991780829631	-1.51723684075803e-05	0.233170196612755	7.51565034042875e-06	0.239262966114261	3.26707736834415e-06	-0.741871621863383	5.11570813103618e-05
				0.243376158230401	7.42187713781429e-06	0.202226065394439	-2.88380213045271e-05	0.202021184015187	-3.01120800647099e-05	0.201828487122868	-1.40021811482616e-05
				0.201943715176077	-2.47672417213012e-05
			0.218164945888728	-9.43970448241594e-06	0.229512380011163	6.31437956637269e-06	0.233700973566232	6.9778312145452e-06	0.243376155329857	3.98252488602033e-06
				-0.732416247784589	4.95698957370231e-05	0.20219230530066	-2.40214031077245e-05	0.201957888446364	-2.47714076706682e-05	0.201713230876429	-1.41784615636628e-05
				0.201747817537612	-2.0717836150018e-05
			0.219423581602419	-2.75531196453762e-05	0.202706505983904	-1.64628466862172e-05	0.202478781568486	-1.77549764975361e-05	0.202226346338951	-1.78157982950279e-05
				0.202192467262606	-1.68872512891708e-05	-0.738201535292138	0.000132614018132291	0.242281065310423	-9.63934580413417e-05	0.234935973414662	1.11285541707348e-05
				0.231905949665519	-1.13562346293677e-05
			0.219007287125432	-2.76706223638505e-05	0.20261076215199	-1.62195805458035e-05	0.202321160471233	-1.76021834988771e-05	0.202021542865215	-1.76695810783914e-05
				0.201958097181061	-1.67335018767527e-05	0.242281869161643	-8.04900787223152e-05	-0.745750858105212	0.000195169302072466	0.240011828790204	1.02779405407087e-05
				0.235489507502483	-4.91313635412382e-05
			0.218497161000269	-1.95656480243816e-05	0.20263487227227	-1.66085501729644e-05	0.202217755055719	-1.68593646645047e-05	0.201828483853834	-1.70450427024286e-05
				0.201713227971864	-1.68629924519815e-05	0.234934757743111	-3.11986904945704e-05	0.240010033384824	-4.75403919530807e-05	-0.745188484830027	3.58733764998053e-05
				0.243297340419605	-4.24605607022244e-05
			0.218204090512009	-2.78685732755261e-05	0.203129608525661	-1.56061196248012e-05	0.202482052359141	-1.7280483614254e-05	0.201943892758112	-1.74452724356175e-05
				0.201747898315563	-1.65444750550984e-05	0.231905805391217	-1.59047816515692e-05	0.235489029506628	-5.74851596802639e-05	0.243298794439881	1.19587667645191e-05
				-0.738252075084536	9.13030341234992e-05
1778.27941003892	-0.747245640482528	6.32449706759168e-05	0.217933409214474	-4.22076888529665e-06	0.217971800761392	-6.06140694850138e-06	0.217992019199444	-5.63332993157092e-06
				0.218165057239287	-4.69840315166134e-06	0.21942302448134	-4.12270369009356e-05	0.219006494380093	-4.4726845930403e-05	0.218497558747979	-2.59998396452503e-06
				0.218203594381985	-4.06488575102565e-05
			0.217933031621566	-1.86504160080496e-05	-0.733824129061278	4.78126167933747e-05	0.242076377170639	5.07411015402489e-06	0.233170197658428	8.94739095695159e-06
				0.229512380537538	7.09752122510653e-06	0.202706131737238	-3.13174638986346e-05	0.202610324204616	-3.1763265264304e-05	0.202634875439554	-1.49531739771544e-05
				0.203129471783943	-2.30163043128379e-05
			0.21797140464691	-2.09844440891565e-05	0.24207638109018	9.33782606533875e-06	-0.742561866421887	5.60050505550839e-05	0.239262965590856	3.88816970631236e-06
				0.233700974017366	7.94907964383494e-06	0.202478346475861	-3.48309490467378e-05	0.202320620913637	-3.61853377044606e-05	0.202217757691184	-1.5451070139595e-05
				0.202481805109771	-2.83540136261251e-05
			0.217991718510985	-1.70220507823828e-05	0.233170197200592	8.43269798067035e-06	0.239262965439054	3.66572167828127e-06	-0.741871614472223	5.73991836958556e-05
				0.243376158020464	8.32748334316011e-06	0.202225991185191	-3.23546413004198e-05	0.202021089698574	-3.37832165064125e-05	0.201828486528201	-1.57107054260245e-05
				0.201943667748667	-2.77879824560617e-05
			0.218164916657272	-1.05907674754732e-05	0.229512380715681	7.08484990505306e-06	0.233700974027481	7.82925511942489e-06	0.243376154368898	4.46846723334066e-06
				-0.732416241527848	5.56183331611581e-05	0.202192262100421	-2.69512242148809e-05	0.201957833185656	-2.77921843705184e-05	0.20171323027943	-1.59084953053073e-05
				0.201747795382896	-2.32451996273528e-05
			0.219423445209325	-3.09115267456826e-05	0.202706504576106	-1.84716167439101e-05	0.202478780042647	-1.99214102316691e-05	0.202226344809628	-1.99896533936909e-05
				0.202192465961894	-1.89478067169142e-05	-0.738200682677179	0.000148770012199975	0.242280253427097	-0.000108128141832098	0.234935974146901	1.24864428555208e-05
				0.23190582571967	-1.27383276425954e-05
			0.219007151296045	-3.10433830596789e-05	0.202610760788665	-1.81986676815687e-05	0.202321158969816	-1.97499736858119e-05	0.202021541360842	-1.98255949973334e-05
				0.201958095907313	-1.8775297058999e-05	0.242281265043022	-9.02934386866363e-05	-0.745749423659458	0.000218935639291233	0.240011829180167	1.15320388237937e-05
				0.235489124933144	-5.51152803200684e-05
			0.218497058104683	-2.19503046485488e-05	0.202634870754789	-1.86350986487082e-05	0.202217753635636	-1.89165173015165e-05	0.201828482412736	-1.91248514573555e-05
				0.201713226622797	-1.89205878127059e-05	0.234934443984693	-3.49961469138112e-05	0.240009569416353	-5.33256828814063e-05	-0.745188481930806	4.02505891539525e-05
				0.243296964717001	-4.7630697398582e-05
			0.218203956439591	-3.12655373137507e-05	0.203129607232538	-1.7510353262367e-05	0.2024820508851	-1.93890204974082e-05	0.201943891273275	-1.95739165741812e-05
